Title:  // Generated for: spectre 
Date: Fri Apr 15 17:36:46 2022
Plotname: Harmonic Balance Steady State Analysis
Flags: real
No. Variables: 18
No. Points: 13
Command: btdsim version 3.5.3
Variables: 
	0	time	s
	1	VDDA1	V
	2	IFn	V
	3	IFp	V
	4	LOp	V
	5	I19.net059	V
	6	RF	V
	7	LOn	V
	8	I19.R2.R0.PLUSHEAD	V
	9	I19.R2.R0.MINUSHEAD	V
	10	I19.R1.R0.PLUSHEAD	V
	11	I19.R1.R0.MINUSHEAD	V
	12	VLO	V
	13	VbiasLO	V
	14	V0#branch	A
	15	V3#branch	A
	16	I21._ub_N__gnd#branch	A
	17	I21._ub_P__gnd#branch	A
Values:
0	 0.000000e+00
	 2.500000e+00
	 1.670874e+00
	 2.225346e+00
	 1.423063e+00
	 1.354285e+00
	 4.947286e-01
	 1.576937e+00
	 2.498627e+00
	 2.226719e+00
	 2.495854e+00
	 1.675020e+00
	-1.538732e-01
	 1.500000e+00
	-1.218541e-03
	 5.597151e-04
	 6.434787e-03
	-5.875072e-03
1	 1.666667e-11
	 2.500000e+00
	 1.670816e+00
	 2.221124e+00
	 2.608888e+00
	 1.532428e+00
	 5.206746e-01
	 3.911125e-01
	 2.498606e+00
	 2.222518e+00
	 2.495854e+00
	 1.674962e+00
	 2.217775e+00
	 1.500000e+00
	-7.156092e-03
	 2.129038e-03
	 1.235352e-02
	-1.022448e-02
2	 3.333333e-11
	 2.500000e+00
	 1.667963e+00
	 2.220263e+00
	 2.803819e+00
	 1.666789e+00
	 5.053446e-01
	 1.961810e-01
	 2.498601e+00
	 2.221662e+00
	 2.495840e+00
	 1.672123e+00
	 2.607638e+00
	 1.500000e+00
	-1.331162e-03
	-2.785834e-05
	-4.319447e-03
	 4.291588e-03
3	 5.000000e-11
	 2.500000e+00
	 1.668083e+00
	 2.220596e+00
	 2.713128e+00
	 1.637029e+00
	 4.990448e-01
	 2.868720e-01
	 2.498603e+00
	 2.221993e+00
	 2.495840e+00
	 1.672242e+00
	 2.426256e+00
	 1.500000e+00
	-1.452297e-03
	 2.659296e-04
	 3.082727e-03
	-2.816797e-03
4	 6.666667e-11
	 2.500000e+00
	 1.667588e+00
	 2.220312e+00
	 2.785640e+00
	 1.666843e+00
	 5.015799e-01
	 2.143599e-01
	 2.498601e+00
	 2.221711e+00
	 2.495838e+00
	 1.671750e+00
	 2.571280e+00
	 1.500000e+00
	-1.228769e-03
	-1.245583e-04
	-2.913488e-03
	 2.788929e-03
5	 8.333333e-11
	 2.500000e+00
	 1.667862e+00
	 2.220616e+00
	 2.705548e+00
	 1.642322e+00
	 4.984508e-01
	 2.944519e-01
	 2.498603e+00
	 2.222013e+00
	 2.495839e+00
	 1.672023e+00
	 2.411096e+00
	 1.500000e+00
	-7.473880e-04
	 1.593071e-05
	 3.564114e-03
	-3.548183e-03
6	 1.000000e-10
	 2.500000e+00
	 1.668138e+00
	 2.220206e+00
	 2.826525e+00
	 1.668576e+00
	 5.018047e-01
	 1.734748e-01
	 2.498601e+00
	 2.221605e+00
	 2.495841e+00
	 1.672297e+00
	 2.653050e+00
	 1.500000e+00
	-9.344243e-04
	-7.007050e-04
	-6.472371e-03
	 5.771666e-03
7	 1.166667e-10
	 2.500000e+00
	 1.665461e+00
	 2.224258e+00
	 1.642483e+00
	 1.592723e+00
	 4.913738e-01
	 1.357517e+00
	 2.498621e+00
	 2.225637e+00
	 2.495827e+00
	 1.669634e+00
	 2.849662e-01
	 1.500000e+00
	 6.196854e-04
	-8.582890e-04
	-1.182779e-02
	 1.096950e-02
8	 1.333333e-10
	 2.500000e+00
	 1.665648e+00
	 2.224964e+00
	 1.445790e+00
	 1.552703e+00
	 4.990279e-01
	 1.554210e+00
	 2.498625e+00
	 2.226339e+00
	 2.495828e+00
	 1.669820e+00
	-1.084203e-01
	 1.500000e+00
	-8.812669e-04
	 1.198725e-04
	 4.396748e-03
	-4.276876e-03
9	 1.500000e-10
	 2.500000e+00
	 1.667121e+00
	 2.224722e+00
	 1.537645e+00
	 1.516921e+00
	 4.942653e-01
	 1.462355e+00
	 2.498624e+00
	 2.226098e+00
	 2.495836e+00
	 1.671285e+00
	 7.529062e-02
	 1.500000e+00
	 9.681611e-04
	-7.178984e-04
	-3.370574e-03
	 2.652676e-03
10	 1.666667e-10
	 2.500000e+00
	 1.668184e+00
	 2.225040e+00
	 1.465162e+00
	 1.459135e+00
	 4.975143e-01
	 1.534838e+00
	 2.498625e+00
	 2.226415e+00
	 2.495841e+00
	 1.672343e+00
	-6.967509e-02
	 1.500000e+00
	-1.061309e-03
	 1.735340e-04
	 2.873770e-03
	-2.700236e-03
11	 1.833333e-10
	 2.500000e+00
	 1.669053e+00
	 2.224815e+00
	 1.542308e+00
	 1.446908e+00
	 4.961908e-01
	 1.457692e+00
	 2.498624e+00
	 2.226191e+00
	 2.495845e+00
	 1.673208e+00
	 8.461587e-02
	 1.500000e+00
	 1.112457e-03
	-8.347105e-04
	-3.801990e-03
	 2.967279e-03
12	 2.000000e-10
	 2.500000e+00
	 1.670874e+00
	 2.225346e+00
	 1.423063e+00
	 1.354285e+00
	 4.947286e-01
	 1.576937e+00
	 2.498627e+00
	 2.226719e+00
	 2.495854e+00
	 1.675020e+00
	-1.538732e-01
	 1.500000e+00
	-1.218541e-03
	 5.597151e-04
	 6.434787e-03
	-5.875072e-03
Title:  // Generated for: spectre 
Date: Fri Apr 15 17:36:46 2022
Plotname: Harmonic Balance Steady State Spectrum
Flags: complex
No. Variables: 18
No. Points: 6
Command: btdsim version 3.5.3
Variables: 
	0	freq	Hz
	1	VDDA1	V
	2	IFn	V
	3	IFp	V
	4	LOp	V
	5	I19.net059	V
	6	RF	V
	7	LOn	V
	8	I19.R2.R0.PLUSHEAD	V
	9	I19.R2.R0.MINUSHEAD	V
	10	I19.R1.R0.PLUSHEAD	V
	11	I19.R1.R0.MINUSHEAD	V
	12	VLO	V
	13	VbiasLO	V
	14	V0#branch	A
	15	V3#branch	A
	16	I21._ub_N__gnd#branch	A
	17	I21._ub_P__gnd#branch	A
Values:
0	 0.000000e+00,  0.000000e+00
	 2.500000e+00,  0.000000e+00
	 1.668066e+00,  0.000000e+00
	 2.222689e+00,  0.000000e+00
	 2.125000e+00,  0.000000e+00
	 1.561389e+00,  0.000000e+00
	 5.000000e-01,  0.000000e+00
	 8.750000e-01,  0.000000e+00
	 2.498613e+00,  0.000000e+00
	 2.224075e+00,  0.000000e+00
	 2.495840e+00,  0.000000e+00
	 1.672226e+00,  0.000000e+00
	 1.250000e+00,  0.000000e+00
	 1.500000e+00,  0.000000e+00
	-1.109246e-03,  0.000000e+00
	-3.000000e-12,  0.000000e+00
	-8.750002e-13,  0.000000e+00
	-2.125000e-12,  0.000000e+00
1	 5.000000e+09,  0.000000e+00
	-1.345725e-16, -5.563330e-32
	 1.643365e-03, -7.554002e-04
	 1.012514e-03,  2.659537e-03
	-2.591918e-01, -7.599933e-01
	-9.709216e-02, -7.772483e-02
	 2.911236e-03, -4.925189e-03
	 2.591918e-01,  7.599933e-01
	 5.180081e-06,  1.325175e-05
	 1.007452e-03,  2.646239e-03
	 8.182688e-06, -3.849563e-06
	 1.635148e-03, -7.516235e-04
	-5.183836e-01, -1.519987e+00
	 2.691450e-17, -3.284163e-32
	-9.247803e-04,  1.295486e-03
	 5.310041e-04, -4.194530e-04
	 4.334181e-03, -1.611108e-03
	-3.803177e-03,  1.191655e-03
2	 1.000000e+10,  0.000000e+00
	-2.691450e-17, -6.169006e-32
	 9.521883e-04,  4.042011e-04
	 5.846541e-05,  2.512452e-05
	-2.961670e-04, -3.349813e-04
	-3.277244e-02, -1.868233e-02
	 8.058175e-04, -3.274292e-03
	 2.961670e-04,  3.349813e-04
	 2.944624e-07,  1.204001e-07
	 5.817309e-05,  2.499887e-05
	 4.795277e-06,  1.935958e-06
	 9.474275e-04,  4.021797e-04
	-5.923340e-04, -6.699627e-04
	-1.345725e-17, -3.284163e-32
	-4.172075e-04,  9.849345e-04
	 7.774475e-05, -3.078095e-04
	 6.256574e-05, -1.271063e-04
	 1.517901e-05, -1.807033e-04
3	 1.500000e+10,  0.000000e+00
	-1.883463e-16, -5.521931e-20
	-2.898308e-05, -5.337063e-04
	 8.519601e-04,  5.344610e-04
	-2.401689e-01, -1.590270e-01
	-3.677829e-02, -2.501970e-03
	-1.554535e-03, -4.463547e-03
	 2.401689e-01,  1.590270e-01
	 4.327830e-06,  2.557170e-06
	 8.477006e-04,  5.317881e-04
	-2.157546e-07, -2.662792e-06
	-2.883852e-05, -5.310377e-04
	-4.803378e-01, -3.180540e-01
	-1.614868e-16,  0.000000e+00
	-2.803379e-07,  1.202527e-03
	 1.850098e-04, -4.756900e-04
	 2.639349e-03, -4.182352e-03
	-2.454339e-03,  3.706662e-03
4	 2.000000e+10,  0.000000e+00
	 5.366540e-17,  1.991461e-19
	 4.881830e-04, -2.198008e-04
	 2.898767e-05, -1.089472e-05
	 9.047444e-05, -6.795856e-04
	-1.718561e-02,  8.313166e-03
	-2.539161e-03, -1.750592e-03
	-9.047444e-05,  6.795856e-04
	 1.428264e-07, -5.953983e-08
	 2.884272e-05, -1.084027e-05
	 2.398914e-06, -1.184096e-06
	 4.857419e-04, -2.187022e-04
	 1.809489e-04, -1.359171e-03
	-5.382899e-17,  3.284163e-32
	 4.499701e-04,  1.007350e-03
	-1.482397e-04, -2.953854e-04
	-8.135780e-05, -9.332586e-05
	-6.688189e-05, -2.020595e-04
5	 2.500000e+10,  0.000000e+00
	 6.711927e-17, -1.121412e-18
	-2.461915e-04, -2.591536e-04
	 7.051012e-04, -6.217771e-05
	-2.023702e-01,  1.322499e-02
	-2.327516e-02,  1.516894e-02
	-4.894782e-03, -1.928097e-03
	 2.023702e-01, -1.322499e-02
	 3.504831e-06, -4.662891e-07
	 7.015756e-04, -6.186760e-05
	-1.285882e-06, -1.238753e-06
	-2.449608e-04, -2.578576e-04
	-4.047404e-01,  2.644998e-02
	-2.355019e-17,  3.284163e-32
	 7.830021e-04,  1.117271e-03
	-8.580383e-05, -5.481510e-04
	-5.199510e-04, -5.797895e-03
	 4.341472e-04,  5.249744e-03
